time	V(vin)	V(vout)
0.000000000000000e+00	-2.000000e+00	-1.999990e+00
1.999999992008394e-11	-1.920000e+00	-1.999990e+00
3.999999984016789e-11	-1.840000e+00	-1.999990e+00
7.999999968033578e-11	-1.680000e+00	-1.999990e+00
1.526626603698195e-10	-1.389349e+00	-1.999990e+00
2.979879817487869e-10	-8.080481e-01	-1.999990e+00
5.167669682520238e-10	6.706788e-02	-1.999990e+00
7.416127780701270e-10	9.664511e-01	-1.999990e+00
1.000000000000000e-09	2.000000e+00	-1.999990e+00
1.077516166578962e-09	2.000000e+00	-1.999990e+00
1.180871055350911e-09	2.000000e+00	-1.999990e+00
1.387580832894810e-09	2.000000e+00	-1.999990e+00
1.801000387982607e-09	2.000000e+00	-1.999990e+00
2.362362161547342e-09	2.000000e+00	-1.999990e+00
3.102154546669092e-09	2.000000e+00	-1.999990e+00
4.033333400164424e-09	2.000000e+00	-1.999990e+00
5.264043337032369e-09	2.000000e+00	-1.999990e+00
6.845822686802298e-09	2.000000e+00	-1.999992e+00
8.841824737349661e-09	2.000000e+00	-1.999997e+00
1.090072240739172e-08	2.000000e+00	-2.000009e+00
1.315169070625293e-08	2.000000e+00	-2.000035e+00
1.590843131396780e-08	2.000000e+00	-2.000086e+00
1.907410502267040e-08	2.000000e+00	-2.000180e+00
2.386473108951734e-08	2.000000e+00	-2.000392e+00
3.015606830647929e-08	2.000000e+00	-2.000770e+00
3.622743024283640e-08	2.000000e+00	-2.001221e+00
4.308496114751801e-08	2.000000e+00	-2.001795e+00
5.015352327767055e-08	2.000000e+00	-2.002393e+00
5.853080243451945e-08	2.000000e+00	-2.003041e+00
6.775808675648355e-08	2.000000e+00	-2.003609e+00
7.752502558936669e-08	2.000000e+00	-2.003993e+00
8.745943888407913e-08	2.000000e+00	-2.004124e+00
9.870232932148624e-08	2.000000e+00	-2.003978e+00
1.101789760550645e-07	2.000000e+00	-2.003559e+00
1.223567462168872e-07	2.000000e+00	-2.002890e+00
1.355782408741471e-07	2.000000e+00	-2.002012e+00
1.507610234125584e-07	2.000000e+00	-2.000953e+00
1.683697663254314e-07	2.000000e+00	-1.999810e+00
1.864102440221675e-07	2.000000e+00	-1.998851e+00
2.047899123429030e-07	2.000000e+00	-1.998171e+00
2.247138848342985e-07	2.000000e+00	-1.997784e+00
2.478306532250551e-07	2.000000e+00	-1.997717e+00
2.780489579825368e-07	2.000000e+00	-1.998004e+00
3.089901133123104e-07	2.000000e+00	-1.998492e+00
3.425626750999194e-07	2.000000e+00	-1.999035e+00
3.730636545209645e-07	2.000000e+00	-1.999424e+00
4.033664625031533e-07	2.000000e+00	-1.999685e+00
4.183140169398564e-07	2.000000e+00	-1.999768e+00
4.320012640414493e-07	2.000000e+00	-1.999814e+00
4.476956503464426e-07	2.000000e+00	-1.999848e+00
4.649423804036120e-07	2.000000e+00	-1.999871e+00
4.820034448470227e-07	2.000000e+00	-1.999884e+00
5.006995676642753e-07	2.000000e+00	-1.999891e+00
5.214993030769112e-07	2.000000e+00	-1.999898e+00
5.475508160439643e-07	2.000000e+00	-1.999907e+00
5.842614001155124e-07	2.000000e+00	-1.999922e+00
6.171821611732268e-07	2.000000e+00	-1.999938e+00
6.459701076572241e-07	2.000000e+00	-1.999951e+00
6.784688052289928e-07	2.000000e+00	-1.999964e+00
7.113795725694182e-07	2.000000e+00	-1.999974e+00
7.429072069061305e-07	2.000000e+00	-1.999979e+00
7.713794199996627e-07	2.000000e+00	-1.999983e+00
8.067486502757274e-07	2.000000e+00	-1.999985e+00
8.392423541344971e-07	2.000000e+00	-1.999986e+00
8.827513860604683e-07	2.000000e+00	-1.999987e+00
9.340184314577701e-07	2.000000e+00	-1.999988e+00
1.036552522252374e-06	2.000000e+00	-1.999989e+00
1.133325037779273e-06	2.000000e+00	-1.999990e+00
1.403600212903747e-06	2.000000e+00	-1.999990e+00
8.222650075699793e-04	2.000000e+00	-1.999586e+00
1.643126414927055e-03	2.000000e+00	-1.998536e+00
2.463987822284130e-03	2.000000e+00	-1.996841e+00
3.284849229641206e-03	2.000000e+00	-1.994501e+00
4.105710636998282e-03	2.000000e+00	-1.991516e+00
4.926572044355357e-03	2.000000e+00	-1.987885e+00
5.747433451712430e-03	2.000000e+00	-1.983609e+00
1.063024595171243e-02	2.000000e+00	-1.949983e+00
1.551305845171243e-02	2.000000e+00	-1.900938e+00
2.039587095171243e-02	2.000000e+00	-1.835840e+00
2.527868345171243e-02	2.000000e+00	-1.756021e+00
3.016149595171243e-02	2.000000e+00	-1.662798e+00
3.504430845171243e-02	2.000000e+00	-1.557473e+00
3.992712095171243e-02	2.000000e+00	-1.441326e+00
4.480993345171243e-02	2.000000e+00	-1.315607e+00
4.969274595171243e-02	2.000000e+00	-1.181537e+00
5.457555845171243e-02	2.000000e+00	-1.040299e+00
5.945837095171243e-02	2.000000e+00	-8.930366e-01
6.434118345171243e-02	2.000000e+00	-7.408530e-01
6.922399595171243e-02	2.000000e+00	-5.848044e-01
7.410680845171243e-02	2.000000e+00	-4.258999e-01
7.898962095171243e-02	2.000000e+00	-2.650990e-01
8.387243345171243e-02	2.000000e+00	-1.033102e-01
8.875524595171243e-02	2.000000e+00	5.861054e-02
9.363805845171243e-02	2.000000e+00	2.198603e-01
9.852087095171243e-02	2.000000e+00	3.796902e-01
1.034036834517124e-01	2.000000e+00	5.374054e-01
1.082864959517124e-01	2.000000e+00	6.923651e-01
1.131693084517124e-01	2.000000e+00	8.439826e-01
1.180521209517124e-01	2.000000e+00	9.917244e-01
1.229349334517124e-01	2.000000e+00	1.135110e+00
1.278177459517124e-01	2.000000e+00	1.273709e+00
1.327005584517124e-01	2.000000e+00	1.407144e+00
1.375833709517124e-01	2.000000e+00	1.535085e+00
1.424661834517124e-01	2.000000e+00	1.657250e+00
1.473489959517124e-01	2.000000e+00	1.773404e+00
1.522318084517124e-01	2.000000e+00	1.883355e+00
1.571146209517124e-01	2.000000e+00	1.986954e+00
1.619974334517124e-01	2.000000e+00	2.084093e+00
1.668802459517124e-01	2.000000e+00	2.174703e+00
1.766458709517124e-01	2.000000e+00	2.336232e+00
1.864114959517124e-01	2.000000e+00	2.471674e+00
1.961771209517124e-01	2.000000e+00	2.581641e+00
2.059427459517124e-01	2.000000e+00	2.667150e+00
2.108255584517124e-01	2.000000e+00	2.701147e+00
2.157083709517124e-01	2.000000e+00	2.729563e+00
2.205911834517124e-01	2.000000e+00	2.752610e+00
2.254739959517124e-01	2.000000e+00	2.770512e+00
2.303568084517124e-01	2.000000e+00	2.783506e+00
2.352396209517124e-01	2.000000e+00	2.791838e+00
2.401224334517124e-01	2.000000e+00	2.795759e+00
2.450052459517124e-01	2.000000e+00	2.795529e+00
2.498880584517124e-01	2.000000e+00	2.791410e+00
2.547708709517124e-01	2.000000e+00	2.783667e+00
2.596536834517124e-01	2.000000e+00	2.772566e+00
2.645364959517124e-01	2.000000e+00	2.758373e+00
2.694193084517124e-01	2.000000e+00	2.741354e+00
2.743021209517124e-01	2.000000e+00	2.721768e+00
2.791849334517124e-01	2.000000e+00	2.699873e+00
2.840677459517124e-01	2.000000e+00	2.675924e+00
2.889505584517124e-01	2.000000e+00	2.650167e+00
2.938333709517124e-01	2.000000e+00	2.622840e+00
2.987161834517124e-01	2.000000e+00	2.594179e+00
3.035989959517124e-01	2.000000e+00	2.564407e+00
3.084818084517124e-01	2.000000e+00	2.533741e+00
3.133646209517124e-01	2.000000e+00	2.502386e+00
3.182474334517124e-01	2.000000e+00	2.470541e+00
3.231302459517124e-01	2.000000e+00	2.438393e+00
3.280130584517124e-01	2.000000e+00	2.406118e+00
3.328958709517124e-01	2.000000e+00	2.373883e+00
3.377786834517124e-01	2.000000e+00	2.341843e+00
3.426614959517124e-01	2.000000e+00	2.310143e+00
3.475443084517124e-01	2.000000e+00	2.278918e+00
3.524271209517124e-01	2.000000e+00	2.248290e+00
3.573099334517124e-01	2.000000e+00	2.218373e+00
3.621927459517124e-01	2.000000e+00	2.189268e+00
3.670755584517124e-01	2.000000e+00	2.161068e+00
3.719583709517124e-01	2.000000e+00	2.133853e+00
3.768411834517124e-01	2.000000e+00	2.107695e+00
3.817239959517124e-01	2.000000e+00	2.082655e+00
3.866068084517124e-01	2.000000e+00	2.058787e+00
3.914896209517124e-01	2.000000e+00	2.036134e+00
3.963724334517124e-01	2.000000e+00	2.014729e+00
4.012552459517124e-01	2.000000e+00	1.994601e+00
4.061380584517124e-01	2.000000e+00	1.975766e+00
4.110208709517124e-01	2.000000e+00	1.958236e+00
4.207864959517124e-01	2.000000e+00	1.927101e+00
4.305521209517124e-01	2.000000e+00	1.901146e+00
4.403177459517124e-01	2.000000e+00	1.880235e+00
4.452005584517124e-01	2.000000e+00	1.871604e+00
4.500833709517124e-01	2.000000e+00	1.864147e+00
4.549661834517124e-01	2.000000e+00	1.857827e+00
4.598489959517124e-01	2.000000e+00	1.852602e+00
4.647318084517124e-01	2.000000e+00	1.848429e+00
4.696146209517124e-01	2.000000e+00	1.845262e+00
4.744974334517124e-01	2.000000e+00	1.843054e+00
4.793802459517124e-01	2.000000e+00	1.841755e+00
4.842630584517124e-01	2.000000e+00	1.841315e+00
4.891458709517124e-01	2.000000e+00	1.841680e+00
4.940286834517124e-01	2.000000e+00	1.842800e+00
4.989114959517124e-01	2.000000e+00	1.844620e+00
5.037943084517125e-01	2.000000e+00	1.847088e+00
5.086771209517125e-01	2.000000e+00	1.850151e+00
5.135599334517125e-01	2.000000e+00	1.853756e+00
5.184427459517125e-01	2.000000e+00	1.857852e+00
5.233255584517125e-01	2.000000e+00	1.862387e+00
5.282083709517125e-01	2.000000e+00	1.867312e+00
5.330911834517125e-01	2.000000e+00	1.872577e+00
5.379739959517125e-01	2.000000e+00	1.878137e+00
5.428568084517125e-01	2.000000e+00	1.883944e+00
5.477396209517125e-01	2.000000e+00	1.889954e+00
5.526224334517125e-01	2.000000e+00	1.896127e+00
5.575052459517125e-01	2.000000e+00	1.902420e+00
5.623880584517125e-01	2.000000e+00	1.908795e+00
5.672708709517125e-01	2.000000e+00	1.915217e+00
5.721536834517125e-01	2.000000e+00	1.921650e+00
5.770364959517125e-01	2.000000e+00	1.928062e+00
5.819193084517125e-01	2.000000e+00	1.934423e+00
5.868021209517125e-01	2.000000e+00	1.940706e+00
5.916849334517125e-01	2.000000e+00	1.946884e+00
5.965677459517125e-01	2.000000e+00	1.952933e+00
6.014505584517125e-01	2.000000e+00	1.958833e+00
6.063333709517125e-01	2.000000e+00	1.964562e+00
6.112161834517125e-01	2.000000e+00	1.970105e+00
6.160989959517125e-01	2.000000e+00	1.975446e+00
6.209818084517125e-01	2.000000e+00	1.980570e+00
6.258646209517125e-01	2.000000e+00	1.985467e+00
6.307474334517125e-01	2.000000e+00	1.990127e+00
6.356302459517125e-01	2.000000e+00	1.994542e+00
6.405130584517125e-01	2.000000e+00	1.998705e+00
6.453958709517125e-01	2.000000e+00	2.002613e+00
6.502786834517125e-01	2.000000e+00	2.006262e+00
6.600443084517125e-01	2.000000e+00	2.012777e+00
6.698099334517125e-01	2.000000e+00	2.018255e+00
6.795755584517125e-01	2.000000e+00	2.022718e+00
6.893411834517125e-01	2.000000e+00	2.026206e+00
6.942239959517125e-01	2.000000e+00	2.027599e+00
6.991068084517125e-01	2.000000e+00	2.028769e+00
7.039896209517125e-01	2.000000e+00	2.029725e+00
7.088724334517125e-01	2.000000e+00	2.030475e+00
7.137552459517125e-01	2.000000e+00	2.031027e+00
7.186380584517125e-01	2.000000e+00	2.031393e+00
7.235208709517125e-01	2.000000e+00	2.031581e+00
7.284036834517125e-01	2.000000e+00	2.031603e+00
7.332864959517125e-01	2.000000e+00	2.031468e+00
7.381693084517125e-01	2.000000e+00	2.031187e+00
7.430521209517125e-01	2.000000e+00	2.030771e+00
7.479349334517125e-01	2.000000e+00	2.030230e+00
7.528177459517125e-01	2.000000e+00	2.029574e+00
7.577005584517125e-01	2.000000e+00	2.028815e+00
7.625833709517125e-01	2.000000e+00	2.027962e+00
7.674661834517125e-01	2.000000e+00	2.027025e+00
7.723489959517125e-01	2.000000e+00	2.026015e+00
7.772318084517125e-01	2.000000e+00	2.024941e+00
7.821146209517125e-01	2.000000e+00	2.023812e+00
7.869974334517125e-01	2.000000e+00	2.022637e+00
7.918802459517125e-01	2.000000e+00	2.021425e+00
7.967630584517125e-01	2.000000e+00	2.020185e+00
8.016458709517125e-01	2.000000e+00	2.018923e+00
8.065286834517125e-01	2.000000e+00	2.017648e+00
8.114114959517125e-01	2.000000e+00	2.016366e+00
8.162943084517125e-01	2.000000e+00	2.015085e+00
8.211771209517125e-01	2.000000e+00	2.013810e+00
8.260599334517125e-01	2.000000e+00	2.012548e+00
8.309427459517125e-01	2.000000e+00	2.011304e+00
8.358255584517125e-01	2.000000e+00	2.010082e+00
8.407083709517125e-01	2.000000e+00	2.008888e+00
8.455911834517125e-01	2.000000e+00	2.007726e+00
8.504739959517125e-01	2.000000e+00	2.006599e+00
8.553568084517125e-01	2.000000e+00	2.005510e+00
8.602396209517125e-01	2.000000e+00	2.004463e+00
8.651224334517125e-01	2.000000e+00	2.003459e+00
8.700052459517125e-01	2.000000e+00	2.002502e+00
8.748880584517125e-01	2.000000e+00	2.001593e+00
8.797708709517125e-01	2.000000e+00	2.000734e+00
8.895364959517125e-01	2.000000e+00	1.999166e+00
8.993021209517125e-01	2.000000e+00	1.997806e+00
9.090677459517125e-01	2.000000e+00	1.996653e+00
9.188333709517125e-01	2.000000e+00	1.995704e+00
9.285989959517125e-01	2.000000e+00	1.994952e+00
9.383646209517125e-01	2.000000e+00	1.994387e+00
9.432474334517125e-01	2.000000e+00	1.994172e+00
9.481302459517125e-01	2.000000e+00	1.993998e+00
9.530130584517125e-01	2.000000e+00	1.993865e+00
9.578958709517125e-01	2.000000e+00	1.993770e+00
9.627786834517125e-01	2.000000e+00	1.993712e+00
9.676614959517125e-01	2.000000e+00	1.993688e+00
9.725443084517125e-01	2.000000e+00	1.993696e+00
9.774271209517125e-01	2.000000e+00	1.993735e+00
9.823099334517125e-01	2.000000e+00	1.993802e+00
9.871927459517125e-01	2.000000e+00	1.993896e+00
9.951171885000001e-01	2.000000e+00	1.994095e+00
1.000000001000000e+00	2.000000e+00	1.994245e+00
1.000000001100000e+00	1.600000e+00	1.994245e+00
1.000000001300000e+00	7.999999e-01	1.994245e+00
1.000000001453299e+00	1.868051e-01	1.994245e+00
1.000000001605963e+00	-4.238504e-01	1.994245e+00
1.000000001831006e+00	-1.324023e+00	1.994245e+00
1.000000002000000e+00	-1.999999e+00	1.994245e+00
1.000000002079815e+00	-2.000000e+00	1.994245e+00
1.000000002186234e+00	-2.000000e+00	1.994245e+00
1.000000002399073e+00	-2.000000e+00	1.994244e+00
1.000000002824750e+00	-2.000000e+00	1.994244e+00
1.000000003390932e+00	-2.000000e+00	1.994244e+00
1.000000004144497e+00	-2.000000e+00	1.994244e+00
1.000000005085225e+00	-2.000000e+00	1.994244e+00
1.000000006337110e+00	-2.000000e+00	1.994244e+00
1.000000007938994e+00	-2.000000e+00	1.994246e+00
1.000000009927228e+00	-2.000000e+00	1.994252e+00
1.000000012023893e+00	-2.000000e+00	1.994265e+00
1.000000014338288e+00	-2.000000e+00	1.994292e+00
1.000000017294082e+00	-2.000000e+00	1.994351e+00
1.000000020596992e+00	-2.000000e+00	1.994455e+00
1.000000026156868e+00	-2.000000e+00	1.994716e+00
1.000000032015165e+00	-2.000000e+00	1.995084e+00
1.000000038569423e+00	-2.000000e+00	1.995587e+00
1.000000045118085e+00	-2.000000e+00	1.996141e+00
1.000000052788973e+00	-2.000000e+00	1.996791e+00
1.000000061091456e+00	-2.000000e+00	1.997419e+00
1.000000071261882e+00	-2.000000e+00	1.998019e+00
1.000000080465302e+00	-2.000000e+00	1.998349e+00
1.000000091286264e+00	-2.000000e+00	1.998452e+00
1.000000102351190e+00	-2.000000e+00	1.998275e+00
1.000000114389830e+00	-2.000000e+00	1.997809e+00
1.000000126675938e+00	-2.000000e+00	1.997122e+00
1.000000140868784e+00	-2.000000e+00	1.996182e+00
1.000000156688639e+00	-2.000000e+00	1.995106e+00
1.000000176051128e+00	-2.000000e+00	1.993903e+00
1.000000193596034e+00	-2.000000e+00	1.993034e+00
1.000000213476662e+00	-2.000000e+00	1.992371e+00
1.000000233764962e+00	-2.000000e+00	1.992041e+00
1.000000259805401e+00	-2.000000e+00	1.992027e+00
1.000000293865041e+00	-2.000000e+00	1.992381e+00
1.000000329180065e+00	-2.000000e+00	1.992914e+00
1.000000364351989e+00	-2.000000e+00	1.993413e+00
1.000000398718694e+00	-2.000000e+00	1.993773e+00
1.000000423269913e+00	-2.000000e+00	1.993938e+00
1.000000443619704e+00	-2.000000e+00	1.994020e+00
1.000000465485619e+00	-2.000000e+00	1.994072e+00
1.000000489521078e+00	-2.000000e+00	1.994105e+00
1.000000514053564e+00	-2.000000e+00	1.994125e+00
1.000000541574634e+00	-2.000000e+00	1.994142e+00
1.000000573853448e+00	-2.000000e+00	1.994160e+00
1.000000610630084e+00	-2.000000e+00	1.994180e+00
1.000000650539018e+00	-2.000000e+00	1.994200e+00
1.000000688049553e+00	-2.000000e+00	1.994216e+00
1.000000726039433e+00	-2.000000e+00	1.994227e+00
1.000000761099340e+00	-2.000000e+00	1.994233e+00
1.000000799037825e+00	-2.000000e+00	1.994237e+00
1.000000833536169e+00	-2.000000e+00	1.994239e+00
1.000000876313482e+00	-2.000000e+00	1.994241e+00
1.000000925696282e+00	-2.000000e+00	1.994242e+00
1.000001002089301e+00	-2.000000e+00	1.994243e+00
1.000001098150202e+00	-2.000000e+00	1.994244e+00
1.000001220706040e+00	-2.000000e+00	1.994244e+00
1.000001856035343e+00	-2.000000e+00	1.994245e+00
1.001006444599948e+00	-2.000000e+00	1.993624e+00
1.002011033164554e+00	-2.000000e+00	1.992098e+00
1.003015621729159e+00	-2.000000e+00	1.989667e+00
1.004020210293765e+00	-2.000000e+00	1.986329e+00
1.005024798858370e+00	-2.000000e+00	1.982086e+00
1.006029387422975e+00	-2.000000e+00	1.976937e+00
1.007033975987581e+00	-2.000000e+00	1.970882e+00
1.011916788487581e+00	-2.000000e+00	1.933389e+00
1.016799600987581e+00	-2.000000e+00	1.880192e+00
1.021682413487581e+00	-2.000000e+00	1.811306e+00
1.026565225987581e+00	-2.000000e+00	1.728058e+00
1.031448038487581e+00	-2.000000e+00	1.631759e+00
1.036330850987581e+00	-2.000000e+00	1.523704e+00
1.041213663487581e+00	-2.000000e+00	1.405165e+00
1.046096475987581e+00	-2.000000e+00	1.277382e+00
1.050979288487581e+00	-2.000000e+00	1.141564e+00
1.055862100987581e+00	-2.000000e+00	9.988853e-01
1.060744913487581e+00	-2.000000e+00	8.504765e-01
1.065627725987581e+00	-2.000000e+00	6.974272e-01
1.070510538487581e+00	-2.000000e+00	5.407805e-01
1.075393350987581e+00	-2.000000e+00	3.815315e-01
1.080276163487581e+00	-2.000000e+00	2.206255e-01
1.085158975987581e+00	-2.000000e+00	5.895647e-02
1.090041788487581e+00	-2.000000e+00	-1.026344e-01
1.094924600987581e+00	-2.000000e+00	-2.633590e-01
1.099807413487581e+00	-2.000000e+00	-4.224835e-01
1.104690225987581e+00	-2.000000e+00	-5.793276e-01
1.109573038487581e+00	-2.000000e+00	-7.332655e-01
1.114455850987581e+00	-2.000000e+00	-8.837248e-01
1.119338663487581e+00	-2.000000e+00	-1.030186e+00
1.124221475987581e+00	-2.000000e+00	-1.172183e+00
1.129104288487581e+00	-2.000000e+00	-1.309300e+00
1.133987100987581e+00	-2.000000e+00	-1.441171e+00
1.138869913487581e+00	-2.000000e+00	-1.567479e+00
1.143752725987581e+00	-2.000000e+00	-1.687956e+00
1.148635538487581e+00	-2.000000e+00	-1.802377e+00
1.153518350987581e+00	-2.000000e+00	-1.910561e+00
1.158401163487581e+00	-2.000000e+00	-2.012372e+00
1.163283975987581e+00	-2.000000e+00	-2.107711e+00
1.168166788487581e+00	-2.000000e+00	-2.196517e+00
1.177932413487581e+00	-2.000000e+00	-2.354469e+00
1.187698038487581e+00	-2.000000e+00	-2.486424e+00
1.197463663487581e+00	-2.000000e+00	-2.593047e+00
1.202346475987581e+00	-2.000000e+00	-2.637180e+00
1.207229288487581e+00	-2.000000e+00	-2.675406e+00
1.212112100987581e+00	-2.000000e+00	-2.707911e+00
1.216994913487581e+00	-2.000000e+00	-2.734896e+00
1.221877725987581e+00	-2.000000e+00	-2.756575e+00
1.226760538487581e+00	-2.000000e+00	-2.773176e+00
1.231643350987581e+00	-2.000000e+00	-2.784939e+00
1.236526163487581e+00	-2.000000e+00	-2.792109e+00
1.241408975987581e+00	-2.000000e+00	-2.794941e+00
1.246291788487581e+00	-2.000000e+00	-2.793694e+00
1.251174600987581e+00	-2.000000e+00	-2.788630e+00
1.256057413487581e+00	-2.000000e+00	-2.780017e+00
1.260940225987581e+00	-2.000000e+00	-2.768118e+00
1.265823038487581e+00	-2.000000e+00	-2.753200e+00
1.270705850987581e+00	-2.000000e+00	-2.735525e+00
1.275588663487581e+00	-2.000000e+00	-2.715354e+00
1.280471475987581e+00	-2.000000e+00	-2.692943e+00
1.285354288487581e+00	-2.000000e+00	-2.668544e+00
1.290237100987581e+00	-2.000000e+00	-2.642400e+00
1.295119913487581e+00	-2.000000e+00	-2.614751e+00
1.300002725987581e+00	-2.000000e+00	-2.585827e+00
1.304885538487581e+00	-2.000000e+00	-2.555849e+00
1.309768350987581e+00	-2.000000e+00	-2.525032e+00
1.314651163487581e+00	-2.000000e+00	-2.493579e+00
1.319533975987581e+00	-2.000000e+00	-2.461685e+00
1.324416788487581e+00	-2.000000e+00	-2.429534e+00
1.329299600987581e+00	-2.000000e+00	-2.397300e+00
1.334182413487581e+00	-2.000000e+00	-2.365147e+00
1.339065225987581e+00	-2.000000e+00	-2.333226e+00
1.343948038487581e+00	-2.000000e+00	-2.301681e+00
1.348830850987581e+00	-2.000000e+00	-2.270642e+00
1.353713663487581e+00	-2.000000e+00	-2.240230e+00
1.358596475987581e+00	-2.000000e+00	-2.210553e+00
1.363479288487581e+00	-2.000000e+00	-2.181713e+00
1.368362100987581e+00	-2.000000e+00	-2.153797e+00
1.373244913487581e+00	-2.000000e+00	-2.126884e+00
1.378127725987581e+00	-2.000000e+00	-2.101044e+00
1.383010538487581e+00	-2.000000e+00	-2.076335e+00
1.387893350987581e+00	-2.000000e+00	-2.052807e+00
1.392776163487581e+00	-2.000000e+00	-2.030502e+00
1.397658975987581e+00	-2.000000e+00	-2.009452e+00
