time	V(borne2)	V(vout)
0.000000000000000e+00	9.399969e-08	-1.800010e-07
1.000000000006120e-03	9.399968e-08	-1.800010e-07
1.000000029109062e-03	9.399220e-08	-1.800011e-07
1.000000058212005e-03	9.399566e-08	-1.800011e-07
1.000000087314947e-03	9.401006e-08	-1.800010e-07
1.000000116417889e-03	9.403541e-08	-1.800008e-07
1.000000145520832e-03	9.407169e-08	-1.800005e-07
1.000000174623774e-03	9.411891e-08	-1.800002e-07
1.000000203726716e-03	9.417708e-08	-1.799998e-07
1.000000407453529e-03	9.532960e-08	-1.799890e-07
1.000000592546374e-03	9.747312e-08	-1.799664e-07
1.000000629814311e-03	9.821873e-08	-1.799576e-07
1.000000704350187e-03	1.005408e-07	-1.799262e-07
1.000000853421939e-03	1.073097e-07	-1.798218e-07
1.000001000000000e-03	1.160886e-07	-1.796744e-07
1.000001102604643e-03	1.258422e-07	-1.794832e-07
1.000001219867092e-03	1.409879e-07	-1.791409e-07
1.000001454391990e-03	1.857317e-07	-1.778764e-07
1.000001923441786e-03	3.237512e-07	-1.729211e-07
1.000002514152189e-03	5.857488e-07	-1.614919e-07
1.000003326258297e-03	1.088593e-06	-1.390411e-07
1.000004321448398e-03	1.868980e-06	-1.243778e-07
1.000005693815401e-03	3.108731e-06	-2.312117e-07
1.000007489098464e-03	4.791936e-06	-9.779867e-07
1.000010106482067e-03	7.056326e-06	-4.418264e-06
1.000013596879435e-03	9.517510e-06	-1.478219e-05
1.000016868896325e-03	1.111919e-05	-3.319163e-05
1.000020727637455e-03	1.208846e-05	-6.955783e-05
1.000025903630950e-03	1.218869e-05	-1.433894e-04
1.000032857112386e-03	1.088706e-05	-2.789990e-04
1.000040063973356e-03	8.348607e-06	-4.522635e-04
1.000048059327125e-03	4.567726e-06	-6.647532e-04
1.000056414206262e-03	-1.948980e-07	-8.809619e-04
1.000066877756801e-03	-7.450325e-06	-1.104756e-03
1.000079293234163e-03	-1.903955e-05	-1.256398e-03
1.000097234466728e-03	-4.292522e-05	-1.258900e-03
1.000113685392048e-03	-7.440781e-05	-1.055667e-03
1.000133529346089e-03	-1.253233e-04	-6.212194e-04
1.000154759681698e-03	-1.895822e-04	-8.719093e-05
1.000177187519610e-03	-2.577413e-04	4.092589e-04
1.000203084100552e-03	-3.224991e-04	7.983790e-04
1.000222881456197e-03	-3.527152e-04	9.348661e-04
1.000239206332230e-03	-3.586123e-04	9.335497e-04
1.000255169197607e-03	-3.470060e-04	8.583147e-04
1.000270864902493e-03	-3.207655e-04	7.402277e-04
1.000287500914171e-03	-2.804738e-04	5.916455e-04
1.000302519302078e-03	-2.364577e-04	4.535586e-04
1.000317427778046e-03	-1.888959e-04	3.251545e-04
1.000333731486227e-03	-1.367231e-04	2.032763e-04
1.000349743452200e-03	-8.877961e-05	1.068127e-04
1.000366190171945e-03	-4.576842e-05	3.334032e-05
1.000382791100781e-03	-1.061962e-05	-1.635696e-05
1.000399984888976e-03	1.624870e-05	-4.587165e-05
1.000417259891548e-03	3.371611e-05	-5.812297e-05
1.000434924743866e-03	4.276826e-05	-5.795510e-05
1.000452829239356e-03	4.445058e-05	-4.979901e-05
1.000474703922088e-03	3.996477e-05	-3.525947e-05
1.000490826351562e-03	3.380214e-05	-2.406163e-05
1.000507262976602e-03	2.622830e-05	-1.394937e-05
1.000526433756393e-03	1.760685e-05	-4.869642e-06
1.000548240665767e-03	9.287393e-06	1.907048e-06
1.000570316818532e-03	3.257901e-06	5.298027e-06
1.000595548012243e-03	-4.975937e-07	6.024208e-06
1.000624744330761e-03	-1.486798e-06	4.693482e-06
1.000666814246085e-03	3.423964e-07	1.808027e-06
1.000701991178731e-03	2.801903e-06	-1.244146e-08
1.000742825561108e-03	5.160801e-06	-8.749412e-07
1.000790647902533e-03	6.516730e-06	-8.286145e-07
1.000851203279451e-03	6.960162e-06	-3.932784e-07
1.000940203796629e-03	7.283744e-06	-1.025785e-07
1.001166427139527e-03	9.515581e-06	-2.039226e-07
1.533216083838770e-03	5.330844e-03	3.749685e-05
2.065265740538013e-03	1.065012e-02	1.503867e-04
2.597315397237255e-03	1.596735e-02	3.384656e-04
3.129365053936499e-03	2.128254e-02	6.017336e-04
3.661414710635741e-03	2.659567e-02	9.401906e-04
4.193464367334985e-03	3.190676e-02	1.353837e-03
4.725514024034226e-03	3.721579e-02	1.842672e-03
8.445679427111448e-03	7.421982e-02	6.848088e-03
1.332849192711145e-02	1.224321e-01	1.736258e-02
1.821130442711145e-02	1.700410e-01	3.255486e-02
2.309411692711145e-02	2.167883e-01	5.264844e-02
2.797692942711145e-02	2.624374e-01	7.754150e-02
3.285974192711145e-02	3.067570e-01	1.071079e-01
3.774255442711145e-02	3.495224e-01	1.411980e-01
4.262536692711145e-02	3.905171e-01	1.796389e-01
4.750817942711145e-02	4.295333e-01	2.222359e-01
5.239099192711145e-02	4.663735e-01	2.687733e-01
5.727380442711145e-02	5.008509e-01	3.190152e-01
6.215661692711145e-02	5.327908e-01	3.727071e-01
6.703942942711144e-02	5.620316e-01	4.295771e-01
7.192224192711144e-02	5.884249e-01	4.893368e-01
7.680505442711144e-02	6.118371e-01	5.516838e-01
8.168786692711144e-02	6.321497e-01	6.163020e-01
8.657067942711144e-02	6.492597e-01	6.828641e-01
9.145349192711144e-02	6.630803e-01	7.510328e-01
9.633630442711144e-02	6.735417e-01	8.204629e-01
1.012191169271114e-01	6.805907e-01	8.908025e-01
1.061019294271114e-01	6.841917e-01	9.616954e-01
1.109847419271114e-01	6.843265e-01	1.032782e+00
1.158675544271114e-01	6.809943e-01	1.103703e+00
1.207503669271114e-01	6.742120e-01	1.174098e+00
1.256331794271114e-01	6.640140e-01	1.243612e+00
1.305159919271114e-01	6.504519e-01	1.311891e+00
1.353988044271114e-01	6.335945e-01	1.378590e+00
1.402816169271114e-01	6.135272e-01	1.443371e+00
1.451644294271114e-01	5.903516e-01	1.505906e+00
1.500472419271114e-01	5.641853e-01	1.565877e+00
1.549300544271114e-01	5.351605e-01	1.622982e+00
1.598128669271114e-01	5.034245e-01	1.676931e+00
1.646956794271114e-01	4.691381e-01	1.727450e+00
1.695784919271114e-01	4.324749e-01	1.774283e+00
1.744613044271114e-01	3.936208e-01	1.817194e+00
1.793441169271114e-01	3.527724e-01	1.855965e+00
1.842269294271114e-01	3.101368e-01	1.890400e+00
1.891097419271114e-01	2.659300e-01	1.920323e+00
1.939925544271114e-01	2.203760e-01	1.945584e+00
1.988753669271114e-01	1.737055e-01	1.966054e+00
2.037581794271114e-01	1.261549e-01	1.981629e+00
2.086409919271114e-01	7.796522e-02	1.992232e+00
2.135238044271114e-01	2.938057e-02	1.997808e+00
2.184066169271114e-01	-1.935293e-02	1.998329e+00
2.232894294271114e-01	-6.798837e-02	1.993791e+00
2.281722419271114e-01	-1.162794e-01	1.984220e+00
2.330550544271114e-01	-1.639813e-01	1.969661e+00
2.379378669271114e-01	-2.108524e-01	1.950191e+00
2.428206794271114e-01	-2.566552e-01	1.925906e+00
2.477034919271114e-01	-3.011578e-01	1.896930e+00
2.525863044271114e-01	-3.441347e-01	1.863410e+00
2.574691169271114e-01	-3.853680e-01	1.825517e+00
2.623519294271114e-01	-4.246491e-01	1.783440e+00
2.672347419271114e-01	-4.617787e-01	1.737395e+00
2.721175544271114e-01	-4.965688e-01	1.687614e+00
2.770003669271114e-01	-5.288432e-01	1.634349e+00
2.818831794271114e-01	-5.584384e-01	1.577871e+00
2.867659919271114e-01	-5.852043e-01	1.518464e+00
2.916488044271114e-01	-6.090055e-01	1.456432e+00
2.965316169271114e-01	-6.297212e-01	1.392086e+00
3.014144294271114e-01	-6.472467e-01	1.325754e+00
3.062972419271114e-01	-6.614931e-01	1.257772e+00
3.111800544271114e-01	-6.723881e-01	1.188484e+00
3.160628669271114e-01	-6.798767e-01	1.118241e+00
3.209456794271114e-01	-6.839209e-01	1.047399e+00
3.258284919271114e-01	-6.845001e-01	9.763172e-01
3.307113044271114e-01	-6.816114e-01	9.053550e-01
3.355941169271114e-01	-6.752696e-01	8.348722e-01
3.404769294271114e-01	-6.655067e-01	7.652261e-01
3.453597419271114e-01	-6.523722e-01	6.967694e-01
3.502425544271114e-01	-6.359326e-01	6.298488e-01
3.551253669271114e-01	-6.162711e-01	5.648035e-01
3.600081794271114e-01	-5.934876e-01	5.019630e-01
3.648909919271114e-01	-5.676972e-01	4.416456e-01
3.697738044271114e-01	-5.390308e-01	3.841570e-01
3.746566169271114e-01	-5.076334e-01	3.297884e-01
3.795394294271114e-01	-4.736643e-01	2.788152e-01
3.844222419271114e-01	-4.372956e-01	2.314957e-01
3.893050544271114e-01	-3.987113e-01	1.880696e-01
3.941878669271114e-01	-3.581070e-01	1.487569e-01
3.990706794271114e-01	-3.156885e-01	1.137568e-01
4.039534919271114e-01	-2.716707e-01	8.324658e-02
4.088363044271114e-01	-2.262764e-01	5.738085e-02
4.137191169271114e-01	-1.797358e-01	3.629062e-02
4.186019294271114e-01	-1.322846e-01	2.008277e-02
4.234847419271114e-01	-8.416322e-02	8.839386e-03
4.283675544271114e-01	-3.561542e-02	2.617443e-03
4.332503669271114e-01	1.311282e-02	1.448459e-03
4.381331794271114e-01	6.177464e-02	5.338358e-03
4.430159919271114e-01	1.101235e-01	1.426743e-02
4.478988044271114e-01	1.579145e-01	2.819045e-02
4.527816169271114e-01	2.049054e-01	4.703686e-02
4.576644294271114e-01	2.508582e-01	7.071120e-02
4.625472419271114e-01	2.955402e-01	9.909351e-02
4.674300544271114e-01	3.387249e-01	1.320400e-01
4.723128669271114e-01	3.801935e-01	1.693838e-01
4.771956794271114e-01	4.197360e-01	2.109357e-01
4.820784919271114e-01	4.571520e-01	2.564851e-01
4.869613044271114e-01	4.922520e-01	3.058013e-01
4.918441169271114e-01	5.248581e-01	3.586346e-01
4.967269294271114e-01	5.548052e-01	4.147170e-01
5.016097419271115e-01	5.819415e-01	4.737647e-01
5.064925544271115e-01	6.061296e-01	5.354784e-01
5.113753669271115e-01	6.272469e-01	5.995455e-01
5.162581794271115e-01	6.451864e-01	6.656413e-01
5.211409919271115e-01	6.598573e-01	7.334310e-01
5.260238044271115e-01	6.711851e-01	8.025713e-01
5.309066169271115e-01	6.791127e-01	8.727117e-01
5.357894294271115e-01	6.835996e-01	9.434970e-01
5.406722419271115e-01	6.846233e-01	1.014569e+00
5.455550544271115e-01	6.821785e-01	1.085566e+00
5.504378669271115e-01	6.762777e-01	1.156130e+00
5.553206794271115e-01	6.669507e-01	1.225904e+00
5.602034919271115e-01	6.542448e-01	1.294532e+00
5.650863044271115e-01	6.382242e-01	1.361669e+00
5.699691169271115e-01	6.189704e-01	1.426973e+00
5.748519294271115e-01	5.965807e-01	1.490114e+00
5.797347419271115e-01	5.711685e-01	1.550772e+00
5.846175544271115e-01	5.428628e-01	1.608640e+00
5.895003669271115e-01	5.118067e-01	1.663424e+00
5.943831794271115e-01	4.781578e-01	1.714847e+00
5.992659919271115e-01	4.420863e-01	1.762648e+00
6.041488044271115e-01	4.037752e-01	1.806586e+00
6.090316169271115e-01	3.634184e-01	1.846437e+00
6.139144294271115e-01	3.212205e-01	1.882000e+00
6.187972419271115e-01	2.773952e-01	1.913095e+00
6.236800544271115e-01	2.321646e-01	1.939564e+00
6.285628669271115e-01	1.857578e-01	1.961272e+00
6.334456794271115e-01	1.384099e-01	1.978111e+00
6.383284919271115e-01	9.036077e-02	1.989994e+00
6.432113044271115e-01	4.185387e-02	1.996861e+00
6.480941169271115e-01	-6.865061e-03	1.998679e+00
6.529769294271115e-01	-5.554920e-02	1.995436e+00
6.578597419271115e-01	-1.039519e-01	1.987151e+00
6.627425544271115e-01	-1.518280e-01	1.973864e+00
6.676253669271115e-01	-1.989348e-01	1.955644e+00
6.725081794271115e-01	-2.450338e-01	1.932582e+00
6.773909919271115e-01	-2.898914e-01	1.904795e+00
6.822738044271115e-01	-3.332803e-01	1.872424e+00
6.871566169271115e-01	-3.749808e-01	1.835634e+00
6.920394294271115e-01	-4.147815e-01	1.794610e+00
6.969222419271115e-01	-4.524808e-01	1.749560e+00
7.018050544271115e-01	-4.878877e-01	1.700713e+00
7.066878669271115e-01	-5.208228e-01	1.648316e+00
7.115706794271115e-01	-5.511194e-01	1.592634e+00
7.164534919271115e-01	-5.786238e-01	1.533950e+00
7.213363044271115e-01	-6.031968e-01	1.472560e+00
7.262191169271115e-01	-6.247138e-01	1.408777e+00
7.311019294271115e-01	-6.430659e-01	1.342922e+00
7.359847419271115e-01	-6.581600e-01	1.275331e+00
7.408675544271115e-01	-6.699198e-01	1.206344e+00
7.457503669271115e-01	-6.782855e-01	1.136312e+00
7.506331794271115e-01	-6.832150e-01	1.065589e+00
7.555159919271115e-01	-6.846830e-01	9.945341e-01
7.603988044271115e-01	-6.826823e-01	9.235067e-01
7.652816169271115e-01	-6.772230e-01	8.528669e-01
7.701644294271115e-01	-6.683326e-01	7.829725e-01
7.750472419271115e-01	-6.560563e-01	7.141775e-01
7.799300544271115e-01	-6.404563e-01	6.468307e-01
7.848128669271115e-01	-6.216116e-01	5.812730e-01
7.896956794271115e-01	-5.996176e-01	5.178366e-01
7.945784919271115e-01	-5.745859e-01	4.568430e-01
7.994613044271115e-01	-5.466431e-01	3.986012e-01
8.043441169271115e-01	-5.159308e-01	3.434061e-01
8.092269294271115e-01	-4.826048e-01	2.915376e-01
8.141097419271115e-01	-4.468338e-01	2.432582e-01
8.189925544271115e-01	-4.087989e-01	1.988126e-01
8.238753669271115e-01	-3.686930e-01	1.584260e-01
8.287581794271115e-01	-3.267192e-01	1.223031e-01
8.336409919271115e-01	-2.830902e-01	9.062668e-02
8.385238044271115e-01	-2.380269e-01	6.355739e-02
8.434066169271115e-01	-1.917578e-01	4.123232e-02
8.482894294271115e-01	-1.445171e-01	2.376457e-02
8.531722419271115e-01	-9.654425e-02	1.124266e-02
8.580550544271115e-01	-4.808229e-02	3.730000e-03
8.629378669271115e-01	6.232756e-04	1.264668e-03
8.678206794271115e-01	4.932569e-02	3.859148e-03
8.727034919271115e-01	9.777822e-02	1.150030e-02
8.775863044271115e-01	1.457354e-01	2.414940e-02
8.824691169271115e-01	1.929542e-01	4.174239e-02
8.873519294271115e-01	2.391956e-01	6.419011e-02
8.922347419271115e-01	2.842250e-01	9.137886e-02
8.971175544271115e-01	3.278146e-01	1.231709e-01
9.020003669271115e-01	3.697434e-01	1.594051e-01
9.068831794271115e-01	4.097990e-01	1.998980e-01
9.117659919271115e-01	4.477784e-01	2.444443e-01
9.166488044271115e-01	4.834893e-01	2.928185e-01
9.215316169271115e-01	5.167508e-01	3.447754e-01
9.264144294271115e-01	5.473943e-01	4.000518e-01
9.312972419271115e-01	5.752645e-01	4.583677e-01
9.361800544271115e-01	6.002203e-01	5.194276e-01
9.410628669271115e-01	6.221353e-01	5.829222e-01
9.459456794271115e-01	6.408985e-01	6.485297e-01
9.508284919271115e-01	6.564146e-01	7.159179e-01
9.557113044271115e-01	6.686053e-01	7.847453e-01
9.605941169271115e-01	6.774086e-01	8.546633e-01
9.654769294271115e-01	6.827800e-01	9.253174e-01
9.703597419271115e-01	6.846923e-01	9.963500e-01
9.752425544271115e-01	6.831358e-01	1.067401e+00
9.801253669271115e-01	6.781184e-01	1.138111e+00
9.850081794271115e-01	6.696655e-01	1.208120e+00
9.898909919271115e-01	6.578199e-01	1.277076e+00
9.947738044271115e-01	6.426417e-01	1.344628e+00
9.996566169271115e-01	6.242076e-01	1.410433e+00
1.004539429427111e+00	6.026112e-01	1.474160e+00
1.009422241927111e+00	5.779619e-01	1.535484e+00
1.014305054427111e+00	5.503844e-01	1.594095e+00
1.019187866927111e+00	5.200186e-01	1.649696e+00
1.024070679427111e+00	4.870183e-01	1.702006e+00
1.028953491927111e+00	4.515506e-01	1.750759e+00
1.033836304427111e+00	4.137952e-01	1.795709e+00
1.038719116927111e+00	3.739435e-01	1.836628e+00
1.043601929427111e+00	3.321973e-01	1.873308e+00
1.048484741927111e+00	2.887681e-01	1.905563e+00
1.053367554427111e+00	2.438760e-01	1.933231e+00
1.058250366927111e+00	1.977483e-01	1.956171e+00
1.063133179427111e+00	1.506188e-01	1.974266e+00
1.068015991927111e+00	1.027263e-01	1.987426e+00
1.072898804427111e+00	5.431327e-02	1.995583e+00
1.077781616927111e+00	5.625118e-03	1.998696e+00
1.082664429427111e+00	-4.309152e-02	1.996750e+00
1.087547241927111e+00	-9.158985e-02	1.989754e+00
1.092430054427111e+00	-1.396241e-01	1.977743e+00
1.097312866927111e+00	-1.869511e-01	1.960779e+00
1.102195679427111e+00	-2.333308e-01	1.938947e+00
1.107078491927111e+00	-2.785285e-01	1.912359e+00
1.111961304427111e+00	-3.223151e-01	1.881148e+00
1.116844116927111e+00	-3.644687e-01	1.845473e+00
1.121726929427111e+00	-4.047758e-01	1.805515e+00
1.126609741927111e+00	-4.430323e-01	1.761476e+00
1.131492554427111e+00	-4.790442e-01	1.713579e+00
1.136375366927111e+00	-5.126292e-01	1.662066e+00
1.141258179427111e+00	-5.436170e-01	1.607200e+00
1.146140991927111e+00	-5.718508e-01	1.549257e+00
1.151023804427111e+00	-5.971874e-01	1.488532e+00
1.155906616927111e+00	-6.194986e-01	1.425331e+00
1.160789429427111e+00	-6.386711e-01	1.359976e+00
1.165672241927111e+00	-6.546080e-01	1.292797e+00
1.170555054427111e+00	-6.672285e-01	1.224135e+00
1.175437866927111e+00	-6.764687e-01	1.154337e+00
1.180320679427111e+00	-6.822817e-01	1.083757e+00
1.185203491927111e+00	-6.846381e-01	1.012753e+00
1.190086304427111e+00	-6.835259e-01	9.416840e-01
1.194969116927111e+00	-6.789509e-01	8.709106e-01
1.199851929427111e+00	-6.709361e-01	8.007911e-01
1.204734741927111e+00	-6.595222e-01	7.316810e-01
1.209617554427111e+00	-6.447669e-01	6.639301e-01
1.214500366927111e+00	-6.267452e-01	5.978819e-01
1.219383179427111e+00	-6.055481e-01	5.338708e-01
1.224265991927111e+00	-5.812833e-01	4.722212e-01
1.229148804427111e+00	-5.540735e-01	4.132455e-01
1.234031616927111e+00	-5.240566e-01	3.572424e-01
1.238914429427111e+00	-4.913847e-01	3.044957e-01
1.243797241927111e+00	-4.562233e-01	2.552725e-01
1.248680054427111e+00	-4.187506e-01	2.098223e-01
1.253562866927111e+00	-3.791564e-01	1.683752e-01
1.258445679427111e+00	-3.376412e-01	1.311414e-01
1.263328491927111e+00	-2.944155e-01	9.830940e-02
1.268211304427111e+00	-2.496982e-01	7.004556e-02
1.273094116927111e+00	-2.037159e-01	4.649307e-02
1.277976929427111e+00	-1.567015e-01	2.777125e-02
1.282859741927111e+00	-1.088932e-01	1.397496e-02
1.287742554427111e+00	-6.053318e-02	5.174087e-03
1.292625366927111e+00	-1.186650e-02	1.413223e-03
1.297508179427111e+00	3.686031e-02	2.711419e-03
1.302390991927111e+00	8.540039e-02	9.062099e-03
1.307273804427111e+00	1.335078e-01	2.043309e-02
1.312156616927111e+00	1.809389e-01	3.676678e-02
1.317039429427111e+00	2.274532e-01	5.798043e-02
1.321922241927111e+00	2.728153e-01	8.396655e-02
1.326805054427111e+00	3.167952e-01	1.145935e-01
1.331687866927111e+00	3.591702e-01	1.497061e-01
1.336570679427111e+00	3.997256e-01	1.891265e-01
1.341453491927111e+00	4.382558e-01	2.326549e-01
1.346336304427111e+00	4.745657e-01	2.800709e-01
1.351219116927111e+00	5.084714e-01	3.311342e-01
1.356101929427111e+00	5.398011e-01	3.855861e-01
1.360984741927111e+00	5.683960e-01	4.431508e-01
1.365867554427111e+00	5.941113e-01	5.035366e-01
1.370750366927111e+00	6.168167e-01	5.664376e-01
1.375633179427111e+00	6.363972e-01	6.315351e-01
1.380515991927111e+00	6.527535e-01	6.984993e-01
1.385398804427111e+00	6.658029e-01	7.669909e-01
1.390281616927111e+00	6.754791e-01	8.366631e-01
1.395164429427111e+00	6.817332e-01	9.071627e-01
1.400047241927111e+00	6.845335e-01	9.781326e-01
1.404930054427111e+00	6.838658e-01	1.049213e+00
1.409812866927111e+00	6.797335e-01	1.120045e+00
1.414695679427111e+00	6.721575e-01	1.190268e+00
1.419578491927111e+00	6.611761e-01	1.259527e+00
1.424461304427111e+00	6.468452e-01	1.327471e+00
1.429344116927111e+00	6.292372e-01	1.393757e+00
1.434226929427111e+00	6.084412e-01	1.458047e+00
1.439109741927111e+00	5.845628e-01	1.520017e+00
1.443992554427111e+00	5.577229e-01	1.579352e+00
1.448875366927111e+00	5.280575e-01	1.635753e+00
1.453758179427111e+00	4.957168e-01	1.688932e+00
1.458640991927111e+00	4.608646e-01	1.738621e+00
1.463523804427111e+00	4.236776e-01	1.784568e+00
1.468406616927111e+00	3.843442e-01	1.826540e+00
1.473289429427111e+00	3.430636e-01	1.864324e+00
1.478172241927111e+00	3.000450e-01	1.897730e+00
1.483055054427111e+00	2.555062e-01	1.926588e+00
1.487937866927111e+00	2.096731e-01	1.950751e+00
1.492820679427111e+00	1.627777e-01	1.970098e+00
1.497703491927111e+00	1.150576e-01	1.984529e+00
1.502586304427111e+00	6.675462e-02	1.993973e+00
1.507469116927111e+00	1.811345e-02	1.998381e+00
1.512351929427111e+00	-3.061947e-02	1.997732e+00
1.517234741927111e+00	-7.919727e-02	1.992027e+00
1.522117554427111e+00	-1.273738e-01	1.981297e+00
1.527000366927111e+00	-1.749051e-01	1.965595e+00
1.531883179427111e+00	-2.215502e-01	1.945001e+00
1.536765991927111e+00	-2.670729e-01	1.919619e+00
1.541648804427111e+00	-3.112425e-01	1.889579e+00
1.546531616927111e+00	-3.538353e-01	1.855031e+00
1.551414429427111e+00	-3.946355e-01	1.816152e+00
1.556297241927111e+00	-4.334363e-01	1.773138e+00
1.561180054427111e+00	-4.700413e-01	1.726207e+00
1.566062866927111e+00	-5.042648e-01	1.675597e+00
1.570945679427111e+00	-5.359337e-01	1.621564e+00
1.575828491927111e+00	-5.648874e-01	1.564382e+00
1.580711304427111e+00	-5.909793e-01	1.504341e+00
1.585594116927111e+00	-6.140770e-01	1.441745e+00
1.590476929427111e+00	-6.340638e-01	1.376910e+00
1.595359741927111e+00	-6.508381e-01	1.310166e+00
1.600242554427111e+00	-6.643152e-01	1.241851e+00
1.605125366927111e+00	-6.744267e-01	1.172311e+00
1.610008179427111e+00	-6.811215e-01	1.101897e+00
1.614890991927111e+00	-6.843654e-01	1.030967e+00
1.619773804427111e+00	-6.841422e-01	9.598807e-01
1.624656616927111e+00	-6.804529e-01	8.889973e-01
1.629539429427111e+00	-6.733164e-01	8.186762e-01
