time	V(borne2)	V(vout)
0.000000000000000e+00	9.399954e-08	-2.786675e-07
1.000000000006120e-03	9.399954e-08	-2.786675e-07
1.000000029109062e-03	9.399199e-08	-2.786676e-07
1.000000058212005e-03	9.399547e-08	-2.786675e-07
1.000000087314947e-03	9.400997e-08	-2.786674e-07
1.000000116417889e-03	9.403550e-08	-2.786673e-07
1.000000145520832e-03	9.407205e-08	-2.786670e-07
1.000000174623774e-03	9.411962e-08	-2.786667e-07
1.000000203726716e-03	9.417822e-08	-2.786663e-07
1.000000407453529e-03	9.534200e-08	-2.786555e-07
1.000000592546374e-03	9.750908e-08	-2.786330e-07
1.000000629814311e-03	9.826390e-08	-2.786242e-07
1.000000704350187e-03	1.006185e-07	-2.785930e-07
1.000000853421939e-03	1.074959e-07	-2.784889e-07
1.000001000000000e-03	1.164276e-07	-2.783421e-07
1.000001102604643e-03	1.263788e-07	-2.781518e-07
1.000001219867092e-03	1.418766e-07	-2.778113e-07
1.000001454391990e-03	1.879038e-07	-2.765559e-07
1.000001923441786e-03	3.304048e-07	-2.716732e-07
1.000002502200496e-03	5.961537e-07	-2.607003e-07
1.000003302455592e-03	1.105773e-06	-2.389778e-07
1.000004272087877e-03	1.856253e-06	-2.236834e-07
1.000005613327641e-03	2.884750e-06	-3.145144e-07
1.000007351912280e-03	3.544128e-06	-9.614366e-07
1.000009894869717e-03	1.571695e-06	-3.949752e-06
1.000013295572729e-03	-8.538608e-06	-1.312933e-05
1.000016779214828e-03	-3.096585e-05	-3.105059e-05
1.000020793583034e-03	-7.639052e-05	-6.576862e-05
1.000026426476963e-03	-1.717326e-04	-1.374789e-04
1.000032444489448e-03	-3.069199e-04	-2.385305e-04
1.000039140697694e-03	-4.865149e-04	-3.724128e-04
1.000046101660506e-03	-6.866127e-04	-5.212901e-04
1.000054243618271e-03	-9.107499e-04	-6.874899e-04
1.000064287554385e-03	-1.133660e-03	-8.511934e-04
1.000078326254429e-03	-1.314701e-03	-9.793200e-04
1.000094004782021e-03	-1.330128e-03	-9.774559e-04
1.000111933124316e-03	-1.141950e-03	-8.139159e-04
1.000129860451688e-03	-8.142326e-04	-5.387818e-04
1.000149545165675e-03	-4.032346e-04	-1.931698e-04
1.000172595075202e-03	1.700697e-05	1.655049e-04
1.000198973313627e-03	3.353658e-04	4.441695e-04
1.000227057921468e-03	4.765800e-04	5.730533e-04
1.000253126251500e-03	4.607016e-04	5.600794e-04
1.000280431077804e-03	3.597608e-04	4.614974e-04
1.000310738219815e-03	2.250873e-04	3.192221e-04
1.000331890622716e-03	1.426860e-04	2.238490e-04
1.000348312684227e-03	9.498643e-05	1.620910e-04
1.000365482542254e-03	6.125508e-05	1.122778e-04
1.000384365829698e-03	3.882523e-05	7.283359e-05
1.000404336617078e-03	2.717158e-05	4.562172e-05
1.000424698648923e-03	2.350344e-05	2.986620e-05
1.000447425818602e-03	2.402042e-05	2.181133e-05
1.000474059284524e-03	2.549801e-05	1.892210e-05
1.000510526402668e-03	2.492337e-05	1.827797e-05
1.000551195076059e-03	2.062417e-05	1.696493e-05
1.000585399464859e-03	1.549626e-05	1.420852e-05
1.000622436393237e-03	1.074202e-05	1.024458e-05
1.000672862593423e-03	7.029009e-06	5.401230e-06
1.000715407286130e-03	6.022648e-06	2.687852e-06
1.000763005560810e-03	6.207971e-06	1.205251e-06
1.000813448585808e-03	6.605365e-06	6.031131e-07
1.000883317576430e-03	6.977573e-06	2.903529e-07
1.001000985535532e-03	7.681623e-06	-3.129906e-08
1.001157009350077e-03	9.067397e-06	-2.379410e-07
1.567375492281834e-03	5.644546e-03	4.386646e-05
2.133593975213590e-03	1.122627e-02	1.699320e-04
2.699812458145347e-03	1.675424e-02	3.779587e-04
3.266030941077103e-03	2.222846e-02	6.679466e-04
3.832249424008860e-03	2.764892e-02	1.039896e-03
4.398467906940615e-03	3.301563e-02	1.493806e-03
4.964686389872371e-03	3.832859e-02	2.029677e-03
8.926612281267707e-03	7.439712e-02	7.342659e-03
1.380942478126771e-02	1.162612e-01	1.745844e-02
1.869223728126771e-02	1.550602e-01	3.155202e-02
2.357504978126771e-02	1.906551e-01	4.950996e-02
2.845786228126771e-02	2.230729e-01	7.100079e-02
3.334067478126770e-02	2.523547e-01	9.569659e-02
3.822348728126770e-02	2.785543e-01	1.232744e-01
4.310629978126770e-02	3.017373e-01	1.534173e-01
4.798911228126770e-02	3.219798e-01	1.858159e-01
5.287192478126770e-02	3.393676e-01	2.201692e-01
5.775473728126770e-02	3.539954e-01	2.561856e-01
6.263754978126770e-02	3.659649e-01	2.935835e-01
6.752036228126770e-02	3.753851e-01	3.320925e-01
7.240317478126770e-02	3.823701e-01	3.714537e-01
7.728598728126770e-02	3.870391e-01	4.114202e-01
8.216879978126770e-02	3.895150e-01	4.517579e-01
8.705161228126770e-02	3.899237e-01	4.922454e-01
9.193442478126770e-02	3.883934e-01	5.326746e-01
9.681723728126770e-02	3.850538e-01	5.728509e-01
1.017000497812677e-01	3.800351e-01	6.125930e-01
1.065828622812677e-01	3.734678e-01	6.517333e-01
1.114656747812677e-01	3.654815e-01	6.901175e-01
1.163484872812677e-01	3.562048e-01	7.276051e-01
1.212312997812677e-01	3.457646e-01	7.640685e-01
1.261141122812677e-01	3.342852e-01	7.993932e-01
1.309969247812677e-01	3.218885e-01	8.334777e-01
1.358797372812677e-01	3.086930e-01	8.662329e-01
1.407625497812677e-01	2.948139e-01	8.975817e-01
1.456453622812677e-01	2.803622e-01	9.274588e-01
1.505281747812677e-01	2.654449e-01	9.558104e-01
1.554109872812677e-01	2.501646e-01	9.825934e-01
1.602937997812677e-01	2.346190e-01	1.007775e+00
1.651766122812677e-01	2.189012e-01	1.031333e+00
1.700594247812677e-01	2.030992e-01	1.053253e+00
1.798250497812677e-01	1.715684e-01	1.092173e+00
1.895906747812677e-01	1.406266e-01	1.124595e+00
1.993562997812677e-01	1.107894e-01	1.150697e+00
2.042391122812677e-01	9.642318e-02	1.161460e+00
2.091219247812677e-01	8.248853e-02	1.170753e+00
2.140047372812677e-01	6.902666e-02	1.178624e+00
2.188875497812677e-01	5.607384e-02	1.185122e+00
2.237703622812677e-01	4.366158e-02	1.190302e+00
2.286531747812677e-01	3.181674e-02	1.194223e+00
2.335359872812677e-01	2.056171e-02	1.196943e+00
2.384187997812677e-01	9.914561e-03	1.198526e+00
2.433016122812677e-01	-1.107334e-04	1.199035e+00
2.481844247812677e-01	-9.504146e-03	1.198536e+00
2.530672372812677e-01	-1.825938e-02	1.197093e+00
2.579500497812677e-01	-2.637366e-02	1.194775e+00
2.628328622812677e-01	-3.384753e-02	1.191646e+00
2.677156747812677e-01	-4.068466e-02	1.187775e+00
2.725984872812677e-01	-4.689160e-02	1.183225e+00
2.774812997812677e-01	-5.247756e-02	1.178064e+00
2.823641122812677e-01	-5.745426e-02	1.172353e+00
2.872469247812677e-01	-6.183563e-02	1.166156e+00
2.921297372812677e-01	-6.563768e-02	1.159535e+00
2.970125497812677e-01	-6.887822e-02	1.152547e+00
3.018953622812677e-01	-7.157671e-02	1.145251e+00
3.067781747812677e-01	-7.375406e-02	1.137702e+00
3.116609872812677e-01	-7.543239e-02	1.129952e+00
3.165437997812677e-01	-7.663490e-02	1.122053e+00
3.214266122812677e-01	-7.738565e-02	1.114052e+00
3.263094247812677e-01	-7.770939e-02	1.105995e+00
3.311922372812677e-01	-7.763145e-02	1.097926e+00
3.360750497812677e-01	-7.717749e-02	1.089885e+00
3.409578622812677e-01	-7.637341e-02	1.081908e+00
3.458406747812677e-01	-7.524523e-02	1.074032e+00
3.507234872812677e-01	-7.381888e-02	1.066289e+00
3.556062997812677e-01	-7.212012e-02	1.058708e+00
3.604891122812677e-01	-7.017446e-02	1.051316e+00
3.653719247812677e-01	-6.800700e-02	1.044139e+00
3.702547372812677e-01	-6.564233e-02	1.037196e+00
3.751375497812677e-01	-6.310447e-02	1.030508e+00
3.800203622812677e-01	-6.041678e-02	1.024092e+00
3.849031747812677e-01	-5.760190e-02	1.017961e+00
3.897859872812677e-01	-5.468163e-02	1.012128e+00
3.946687997812677e-01	-5.167694e-02	1.006603e+00
3.995516122812677e-01	-4.860790e-02	1.001394e+00
4.044344247812677e-01	-4.549362e-02	9.965058e-01
4.093172372812677e-01	-4.235222e-02	9.919425e-01
4.190828622812677e-01	-3.605553e-02	9.837968e-01
4.288484872812677e-01	-2.984239e-02	9.769522e-01
4.386141122812677e-01	-2.382055e-02	9.713800e-01
4.483797372812677e-01	-1.808100e-02	9.670307e-01
4.532625497812677e-01	-1.534101e-02	9.652944e-01
4.581453622812677e-01	-1.269828e-02	9.638378e-01
4.630281747812677e-01	-1.015966e-02	9.626503e-01
4.679109872812677e-01	-7.731048e-03	9.617208e-01
4.727937997812677e-01	-5.417433e-03	9.610376e-01
4.776766122812677e-01	-3.222924e-03	9.605886e-01
4.825594247812677e-01	-1.150789e-03	9.603612e-01
4.874422372812677e-01	7.965097e-04	9.603427e-01
4.923250497812677e-01	2.617280e-03	9.605199e-01
4.972078622812677e-01	4.310555e-03	9.608796e-01
5.020906747812677e-01	5.876055e-03	9.614085e-01
5.069734872812677e-01	7.314146e-03	9.620935e-01
5.118562997812677e-01	8.625794e-03	9.629213e-01
5.167391122812677e-01	9.812526e-03	9.638789e-01
5.216219247812677e-01	1.087639e-02	9.649535e-01
5.265047372812677e-01	1.181989e-02	9.661322e-01
5.313875497812677e-01	1.264599e-02	9.674029e-01
5.362703622812677e-01	1.335803e-02	9.687535e-01
5.411531747812677e-01	1.395969e-02	9.701723e-01
5.460359872812677e-01	1.445497e-02	9.716482e-01
5.509187997812677e-01	1.484814e-02	9.731702e-01
5.558016122812677e-01	1.514371e-02	9.747279e-01
5.606844247812677e-01	1.534637e-02	9.763116e-01
5.655672372812677e-01	1.546097e-02	9.779117e-01
5.704500497812677e-01	1.549250e-02	9.795194e-01
5.753328622812677e-01	1.544603e-02	9.811263e-01
5.802156747812677e-01	1.532671e-02	9.827245e-01
5.850984872812677e-01	1.513971e-02	9.843069e-01
5.899812997812677e-01	1.489020e-02	9.858667e-01
5.948641122812677e-01	1.458335e-02	9.873975e-01
5.997469247812677e-01	1.422428e-02	9.888937e-01
6.046297372812677e-01	1.381804e-02	9.903502e-01
6.095125497812677e-01	1.336958e-02	9.917623e-01
6.143953622812677e-01	1.288377e-02	9.931259e-01
6.192781747812677e-01	1.236535e-02	9.944372e-01
6.241609872812677e-01	1.181890e-02	9.956933e-01
6.290437997812677e-01	1.124889e-02	9.968914e-01
6.339266122812677e-01	1.065958e-02	9.980292e-01
6.388094247812677e-01	1.005509e-02	9.991051e-01
6.436922372812677e-01	9.439334e-03	1.000118e+00
6.534578622812677e-01	8.188764e-03	1.001949e+00
6.632234872812677e-01	6.935308e-03	1.003520e+00
6.729891122812677e-01	5.703117e-03	1.004832e+00
6.827547372812677e-01	4.512988e-03	1.005892e+00
6.925203622812677e-01	3.382387e-03	1.006711e+00
6.974031747812677e-01	2.843971e-03	1.007034e+00
7.022859872812677e-01	2.325515e-03	1.007303e+00
7.071687997812677e-01	1.828306e-03	1.007518e+00
7.120516122812677e-01	1.353444e-03	1.007684e+00
7.169344247812677e-01	9.018536e-04	1.007800e+00
7.218172372812677e-01	4.742843e-04	1.007872e+00
7.267000497812677e-01	7.132148e-05	1.007900e+00
7.315828622812677e-01	-3.066072e-04	1.007888e+00
7.364656747812677e-01	-6.592238e-04	1.007837e+00
7.413484872812677e-01	-9.863921e-04	1.007751e+00
7.462312997812677e-01	-1.288109e-03	1.007633e+00
7.511141122812677e-01	-1.564498e-03	1.007485e+00
7.559969247812677e-01	-1.815797e-03	1.007309e+00
7.608797372812677e-01	-2.042353e-03	1.007108e+00
7.657625497812677e-01	-2.244612e-03	1.006886e+00
7.706453622812677e-01	-2.423113e-03	1.006643e+00
7.804109872812677e-01	-2.711394e-03	1.006108e+00
7.901766122812677e-01	-2.913003e-03	1.005522e+00
7.950594247812677e-01	-2.983384e-03	1.005216e+00
7.999422372812677e-01	-3.034686e-03	1.004903e+00
8.048250497812677e-01	-3.067859e-03	1.004586e+00
8.097078622812677e-01	-3.083881e-03	1.004266e+00
8.145906747812677e-01	-3.083755e-03	1.003946e+00
8.194734872812677e-01	-3.068497e-03	1.003626e+00
8.243562997812677e-01	-3.039137e-03	1.003309e+00
8.292391122812677e-01	-2.996704e-03	1.002995e+00
8.341219247812677e-01	-2.942232e-03	1.002686e+00
8.390047372812677e-01	-2.876745e-03	1.002384e+00
8.438875497812677e-01	-2.801259e-03	1.002089e+00
8.487703622812677e-01	-2.716774e-03	1.001802e+00
8.585359872812677e-01	-2.524707e-03	1.001257e+00
8.683016122812677e-01	-2.308107e-03	1.000754e+00
8.780672372812677e-01	-2.074077e-03	1.000298e+00
8.878328622812677e-01	-1.829189e-03	9.998922e-01
8.975984872812677e-01	-1.579414e-03	9.995377e-01
9.073641122812677e-01	-1.330090e-03	9.992351e-01
9.220125497812677e-01	-9.670044e-04	9.988770e-01
9.366609872812677e-01	-6.282808e-04	9.986286e-01
9.513094247812677e-01	-3.235895e-04	9.984807e-01
9.610750497812677e-01	-1.427239e-04	9.984321e-01
9.708406747812677e-01	1.882003e-05	9.984192e-01
9.806062997812677e-01	1.603324e-04	9.984377e-01
9.903719247812677e-01	2.815700e-04	9.984835e-01
1.005020362281268e+00	4.258865e-04	9.985943e-01
1.019668799781268e+00	5.270988e-04	9.987433e-01
1.034317237281268e+00	5.886681e-04	9.989175e-01
1.048965674781268e+00	6.150795e-04	9.991053e-01
1.063614112281268e+00	6.114749e-04	9.992965e-01
1.078262549781268e+00	5.833240e-04	9.994828e-01
1.092910987281268e+00	5.361410e-04	9.996571e-01
1.107559424781268e+00	4.752483e-04	9.998144e-01
1.122207862281268e+00	4.055910e-04	9.999514e-01
1.133368576566982e+00	3.464996e-04	1.000040e+00
1.144529290852696e+00	2.897319e-04	1.000115e+00
1.155690005138410e+00	2.352879e-04	1.000178e+00
1.166850719424125e+00	1.831675e-04	1.000228e+00
1.178011433709839e+00	1.333709e-04	1.000266e+00
1.189172147995553e+00	8.589790e-05	1.000291e+00
1.200332862281268e+00	4.074859e-05	1.000304e+00
1.214981299781268e+00	-6.665506e-06	1.000302e+00
1.229629737281268e+00	-4.595196e-05	1.000293e+00
1.244278174781268e+00	-7.711076e-05	1.000276e+00
1.258926612281268e+00	-1.001419e-04	1.000253e+00
1.273575049781268e+00	-1.150454e-04	1.000223e+00
1.288223487281268e+00	-1.218213e-04	1.000186e+00
1.302871924781268e+00	-1.204695e-04	1.000141e+00
1.321008085495553e+00	-1.099268e-04	1.000093e+00
1.339144246209839e+00	-9.791896e-05	1.000051e+00
1.357280406924125e+00	-8.444610e-05	1.000016e+00
1.375416567638410e+00	-6.950820e-05	9.999866e-01
1.393552728352696e+00	-5.310525e-05	9.999636e-01
1.411688889066982e+00	-3.523725e-05	9.999469e-01
1.429825049781268e+00	-1.590421e-05	9.999364e-01
1.459121924781268e+00	1.643400e-06	9.999404e-01
1.488418799781268e+00	1.466921e-05	9.999461e-01
1.517715674781268e+00	2.317321e-05	9.999536e-01
1.547012549781268e+00	2.715541e-05	9.999628e-01
1.576309424781268e+00	2.661580e-05	9.999738e-01
1.605606299781268e+00	2.155440e-05	9.999865e-01
1.634903174781268e+00	1.197119e-05	1.000001e+00
1.691404290852696e+00	5.868446e-06	1.000000e+00
1.747905406924125e+00	1.353844e-06	9.999994e-01
1.804406522995553e+00	-1.572620e-06	9.999985e-01
1.860907639066982e+00	-2.910945e-06	9.999974e-01
1.917408755138411e+00	-2.661131e-06	9.999962e-01
1.973909871209839e+00	-8.231798e-07	9.999949e-01
2.030410987281268e+00	2.602910e-06	9.999935e-01
3.739395362281268e+00	1.637695e-06	9.999946e-01
4.999160987281268e+00	1.637708e-06	9.999946e-01
5.000000000000000e+00	1.637709e-06	9.999946e-01
